
T3AE0 000:332 SEGGER J-Link V4.86a Log File (0002ms, 0027ms total)
T3AE0 000:332 DLL Compiled: Jun 11 2014 17:22:49 (0002ms, 0027ms total)
T3AE0 000:332 Logging started @ 2016-02-03 17:30 (0002ms, 0027ms total)
T3AE0 000:334 JLINK_SetWarnOutHandler(...) (0000ms, 0027ms total)
T3AE0 000:334 JLINK_OpenEx(...)
Firmware: J-Link ARM V8 compiled Nov 28 2014 13:44:46
Hardware: V8.00
S/N: 17935099
Feature(s): RDI,FlashDL,FlashBP,JFlash  returns O.K. (0055ms, 0082ms total)
T3AE0 000:389 JLINK_SetErrorOutHandler(...) (0000ms, 0082ms total)
T3AE0 000:389 JLINK_ExecCommand("ProjectFile = "D:\BLE\NXP\Firefly\FireBLE\Driver\gpio\keil\JLinkSettings.ini"", ...)  returns 0x00 (0001ms, 0083ms total)
T3AE0 000:390 JLINK_ExecCommand("Device = QN9020", ...)Device "QN9020" selected (0 KB flash, 32 KB RAM).  returns 0x00 (0000ms, 0083ms total)
T3AE0 000:390 JLINK_ExecCommand("DisableConnectionTimeout", ...)  returns 0x01 (0000ms, 0083ms total)
T3AE0 000:390 JLINK_GetHardwareVersion()  returns 0x13880 (0000ms, 0083ms total)
T3AE0 000:390 JLINK_GetDLLVersion()  returns 48601 (0000ms, 0083ms total)
T3AE0 000:390 JLINK_GetFirmwareString(...) (0000ms, 0083ms total)
T3AE0 000:390 JLINK_GetDLLVersion()  returns 48601 (0000ms, 0083ms total)
T3AE0 000:390 JLINK_GetCompileDateTime() (0000ms, 0083ms total)
T3AE0 000:390 JLINK_GetFirmwareString(...) (0000ms, 0083ms total)
T3AE0 000:390 JLINK_GetHardwareVersion()  returns 0x13880 (0000ms, 0083ms total)
T3AE0 000:391 JLINK_TIF_Select(JLINKARM_TIF_SWD)  returns 0x00 (0005ms, 0088ms total)
T3AE0 000:396 JLINK_SetSpeed(5000) (0001ms, 0089ms total)
T3AE0 000:397 JLINK_GetId() >0x108 TIF>Found SWD-DP with ID 0x0BB11477 >0x0D TIF> >0x21 TIF> >0x0D TIF> >0x28 TIF> >0x0D TIF> >0x28 TIF> >0x0D TIF> >0x21 TIF> >0x0D TIF> >0x28 TIF> >0x0D TIF> >0x21 TIF> >0x0D TIF> >0x21 TIF> >0x0D TIF> >0x21 TIF> >0x0D TIF> >0x21 TIF> >0x0D TIF> >0x28 TIF> >0x0D TIF> >0x28 TIF> >0x0D TIF> >0x21 TIF> >0x0D TIF> >0x28 TIF> >0x0D TIF> >0x28 TIF> >0x0D TIF> >0x28 TIF> >0x0D TIF> >0x21 TIF> >0x0D TIF> >0x21 TIF> >0x0D TIF> >0x28 TIF> >0x0D TIF> >0x21 TIF> >0x0D TIF>
 >0x21 TIF>Found Cortex-M0 r0p0, Little endian. -- CPU_WriteMem(4 bytes @ 0xE0002000) -- CPU_ReadMem(4 bytes @ 0xE000EDF0) -- CPU_ReadMem(4 bytes @ 0xE0002000)FPUnit: 4 code (BP) slots and 0 literal slots -- CPU_ReadMem(4 bytes @ 0xE000EDFC) -- CPU_ReadMem(4 bytes @ 0xE0001000) -- CPU_WriteMem(4 bytes @ 0xE0001000) -- CPU_ReadMem(4 bytes @ 0xE00FF018) >0x0D TIF> >0x21 TIF>  returns 0x0BB11477 (0056ms, 0145ms total)
T3AE0 000:453 JLINK_GetDLLVersion()  returns 48601 (0000ms, 0145ms total)
T3AE0 000:453 JLINK_CORE_GetFound()  returns 0x60000FF (0000ms, 0145ms total)
T3AE0 000:453 JLINK_ReadMem (0xE00FF000, 0x0020 Bytes, ...) -- CPU is running -- CPU_ReadMem(32 bytes @ 0xE00FF000) - Data: 03 F0 F0 FF 03 20 F0 FF 03 30 F0 FF 00 00 00 00 ...  returns 0x00 (0001ms, 0146ms total)
T3AE0 000:454 JLINK_ReadMem (0xE000EFF0, 0x0010 Bytes, ...) -- CPU is running -- CPU_ReadMem(16 bytes @ 0xE000EFF0) - Data: 0D 00 00 00 E0 00 00 00 05 00 00 00 B1 00 00 00  returns 0x00 (0001ms, 0147ms total)
T3AE0 000:455 JLINK_ReadMem (0xE000EFD0, 0x0020 Bytes, ...) -- CPU is running -- CPU_ReadMem(32 bytes @ 0xE000EFD0) - Data: 04 00 00 00 00 00 00 00 00 00 00 00 00 00 00 00 ...  returns 0x00 (0001ms, 0148ms total)
T3AE0 000:456 JLINK_ReadMem (0xE0001FF0, 0x0010 Bytes, ...) -- CPU is running -- CPU_ReadMem(16 bytes @ 0xE0001FF0) - Data: 0D 00 00 00 E0 00 00 00 05 00 00 00 B1 00 00 00  returns 0x00 (0001ms, 0149ms total)
T3AE0 000:457 JLINK_ReadMem (0xE0001FD0, 0x0020 Bytes, ...) -- CPU is running -- CPU_ReadMem(32 bytes @ 0xE0001FD0) - Data: 04 00 00 00 00 00 00 00 00 00 00 00 00 00 00 00 ...  returns 0x00 (0001ms, 0150ms total)
T3AE0 000:458 JLINK_ReadMem (0xE0002FF0, 0x0010 Bytes, ...) -- CPU is running -- CPU_ReadMem(16 bytes @ 0xE0002FF0) - Data: 0D 00 00 00 E0 00 00 00 05 00 00 00 B1 00 00 00  returns 0x00 (0001ms, 0151ms total)
T3AE0 000:459 JLINK_ReadMem (0xE0002FD0, 0x0020 Bytes, ...) -- CPU is running -- CPU_ReadMem(32 bytes @ 0xE0002FD0) - Data: 04 00 00 00 00 00 00 00 00 00 00 00 00 00 00 00 ...  returns 0x00 (0001ms, 0152ms total)
T3AE0 000:460 JLINK_ReadMemU32(0xE000ED00, 0x0001 Items, ...) -- CPU is running -- CPU_ReadMem(4 bytes @ 0xE000ED00) - Data: 00 C2 0C 41  returns 0x01 (0001ms, 0153ms total)
T3AE0 000:461 JLINK_SetResetType(JLINKARM_RESET_TYPE_NORMAL)  returns JLINKARM_RESET_TYPE_NORMAL (0000ms, 0153ms total)
T3AE0 000:461 JLINK_Reset() -- CPU is running -- CPU_WriteMem(4 bytes @ 0xE000EDF0) -- CPU is running -- CPU_WriteMem(4 bytes @ 0xE000EDFC) >0x35 TIF> -- CPU is running -- CPU_WriteMem(4 bytes @ 0xE000ED0C) -- CPU is running -- CPU_ReadMem(4 bytes @ 0xE000EDF0) -- CPU is running -- CPU_ReadMem(4 bytes @ 0xE000EDF0) -- CPU is running -- CPU_WriteMem(4 bytes @ 0xE000EDF0) -- CPU is running -- CPU_WriteMem(4 bytes @ 0xE000EDFC) -- CPU is running -- CPU_ReadMem(4 bytes @ 0xE000EDF0)
 -- CPU_WriteMem(4 bytes @ 0xE0002000) -- CPU_ReadMem(4 bytes @ 0xE000EDFC) -- CPU_ReadMem(4 bytes @ 0xE0001000) -- CPU_WriteMem(4 bytes @ 0xE0001000) (0025ms, 0178ms total)
T3AE0 000:486 JLINK_ReadReg(R15 (PC))  returns 0x01015B10 (0000ms, 0178ms total)
T3AE0 000:486 JLINK_ReadReg(XPSR)  returns 0xC1000000 (0000ms, 0178ms total)
T3AE0 000:486 JLINK_Halt()  returns 0x00 (0000ms, 0178ms total)
T3AE0 000:486 JLINK_IsHalted()  returns TRUE (0000ms, 0178ms total)
T3AE0 000:486 JLINK_ReadMemU32(0xE000EDF0, 0x0001 Items, ...) -- CPU_ReadMem(4 bytes @ 0xE000EDF0) - Data: 03 00 03 00  returns 0x01 (0001ms, 0179ms total)
T3AE0 000:487 JLINK_WriteU32(0xE000EDF0, 0xA05F0003) -- CPU_WriteMem(4 bytes @ 0xE000EDF0)  returns 0x00 (0001ms, 0180ms total)
T3AE0 000:488 JLINK_WriteU32(0xE000EDFC, 0x01000000) -- CPU_WriteMem(4 bytes @ 0xE000EDFC)  returns 0x00 (0001ms, 0181ms total)
T3AE0 000:491 JLINK_GetHWStatus(...)  returns 0x00 (0001ms, 0182ms total)
T3AE0 000:493 JLINK_GetNumBPUnits(Type = 0xFFFFFF00)  returns 0x04 (0000ms, 0182ms total)
T3AE0 000:493 JLINK_GetNumBPUnits(Type = 0xF0)  returns 0x2000 (0000ms, 0182ms total)
T3AE0 000:493 JLINK_GetNumWPUnits()  returns 0x02 (0000ms, 0182ms total)
T3AE0 000:493 JLINK_GetSpeed()  returns 0xFA0 (0000ms, 0182ms total)
T3AE0 000:493 JLINK_ReadMemU32(0xE000E004, 0x0001 Items, ...) -- CPU_ReadMem(4 bytes @ 0xE000E004) - Data: 00 00 00 00  returns 0x01 (0001ms, 0183ms total)
T3AE0 000:494 JLINK_ReadReg(R15 (PC))  returns 0x01015B10 (0001ms, 0184ms total)
T3AE0 000:495 JLINK_ReadReg(XPSR)  returns 0xC1000000 (0000ms, 0184ms total)
T3AE0 000:565 JLINK_SetResetType(JLINKARM_RESET_TYPE_NORMAL)  returns JLINKARM_RESET_TYPE_NORMAL (0000ms, 0184ms total)
T3AE0 000:565 JLINK_Reset() -- CPU_WriteMem(4 bytes @ 0xE000EDF0) -- CPU_WriteMem(4 bytes @ 0xE000EDFC) >0x35 TIF> -- CPU_WriteMem(4 bytes @ 0xE000ED0C) -- CPU_ReadMem(4 bytes @ 0xE000EDF0) -- CPU_ReadMem(4 bytes @ 0xE000EDF0) -- CPU_WriteMem(4 bytes @ 0xE000EDF0) -- CPU_WriteMem(4 bytes @ 0xE000EDFC) -- CPU is running -- CPU_ReadMem(4 bytes @ 0xE000EDF0) -- CPU_WriteMem(4 bytes @ 0xE0002000) -- CPU_ReadMem(4 bytes @ 0xE000EDFC) -- CPU_ReadMem(4 bytes @ 0xE0001000) -- CPU_WriteMem(4 bytes @ 0xE0001000)
 (0025ms, 0209ms total)
T3AE0 000:590 JLINK_ReadReg(R15 (PC))  returns 0x01015B10 (0000ms, 0209ms total)
T3AE0 000:590 JLINK_ReadReg(XPSR)  returns 0xC1000000 (0000ms, 0209ms total)
T3AE0 000:590 JLINK_ReadMem (0x01015B10, 0x003C Bytes, ...) -- CPU_ReadMem(60 bytes @ 0x01015B10) - Data: FE EE FF FF FE EE 7F FF FE EE 7F FF FE EE FF FF ...  returns 0x00 (0002ms, 0211ms total)
T3AE0 001:091 JLINK_ReadMem (0x00000000, 0x002E Bytes, ...) -- CPU_ReadMem(46 bytes @ 0x00000000) - Data: FF EE 7F FF FF EE 7F FF FF EE 7F FF FF EE FF FF ...  returns 0x00 (0003ms, 0214ms total)
T3AE0 001:412 JLINK_ReadMem (0x50000000, 0x0038 Bytes, ...) -- CPU_ReadMem(56 bytes @ 0x50000000) - Data: 3F FF FF 7C 00 00 00 00 00 00 00 00 00 00 00 00 ...  returns 0x00 (0001ms, 0215ms total)
T1C48 001:420 JLINK_SetBPEx(Addr = 0x10000818, Type = 0xFFFFFFF2)  returns 0x00000001 (0000ms, 0215ms total)
T1C48 001:420 JLINK_Go() -- CPU_WriteMem(4 bytes @ 0xE0002000) -- CPU_WriteMem(4 bytes @ 0xE0002008) -- CPU_WriteMem(4 bytes @ 0xE000200C) -- CPU_WriteMem(4 bytes @ 0xE0002010) -- CPU_WriteMem(4 bytes @ 0xE0002014) -- CPU_WriteMem(4 bytes @ 0xE0001004) (0008ms, 0223ms total)
T1C48 001:528 JLINK_IsHalted()  returns FALSE (0001ms, 0224ms total)
T1C48 001:629 JLINK_IsHalted()  returns FALSE (0001ms, 0224ms total)
T1C48 001:730 JLINK_IsHalted()  returns TRUE (0003ms, 0226ms total)
T1C48 001:733 JLINK_Halt()  returns 0x00 (0000ms, 0223ms total)
T1C48 001:733 JLINK_IsHalted()  returns TRUE (0000ms, 0223ms total)
T1C48 001:733 JLINK_IsHalted()  returns TRUE (0000ms, 0223ms total)
T1C48 001:733 JLINK_IsHalted()  returns TRUE (0000ms, 0223ms total)
T1C48 001:733 JLINK_ReadReg(R15 (PC))  returns 0x10000818 (0000ms, 0223ms total)
T1C48 001:733 JLINK_ReadReg(XPSR)  returns 0x61000000 (0000ms, 0223ms total)
T1C48 001:733 JLINK_ClrBPEx(BPHandle = 0x00000001)  returns 0x00 (0000ms, 0223ms total)
T1C48 001:733 JLINK_ReadMemU32(0xE000ED30, 0x0001 Items, ...) -- CPU_ReadMem(4 bytes @ 0xE000ED30) - Data: 03 00 00 00  returns 0x01 (0001ms, 0224ms total)
T1C48 001:734 JLINK_ReadMemU32(0xE0001028, 0x0001 Items, ...) -- CPU_ReadMem(4 bytes @ 0xE0001028) - Data: 00 00 00 00  returns 0x01 (0001ms, 0225ms total)
T1C48 001:735 JLINK_ReadMemU32(0xE0001038, 0x0001 Items, ...) -- CPU_ReadMem(4 bytes @ 0xE0001038) - Data: 00 00 00 00  returns 0x01 (0001ms, 0226ms total)
T1C48 001:736 JLINK_ReadReg(R0)  returns 0x10000819 (0000ms, 0226ms total)
T1C48 001:736 JLINK_ReadReg(R1)  returns 0x10000FF8 (0000ms, 0226ms total)
T1C48 001:736 JLINK_ReadReg(R2)  returns 0x00000000 (0000ms, 0226ms total)
T1C48 001:736 JLINK_ReadReg(R3)  returns 0x100006C5 (0000ms, 0226ms total)
T1C48 001:736 JLINK_ReadReg(R4)  returns 0x10000CF0 (0000ms, 0226ms total)
T1C48 001:736 JLINK_ReadReg(R5)  returns 0x00000001 (0000ms, 0226ms total)
T1C48 001:736 JLINK_ReadReg(R6)  returns 0x10000CF0 (0000ms, 0226ms total)
T1C48 001:736 JLINK_ReadReg(R7)  returns 0x40000000 (0000ms, 0226ms total)
T1C48 001:736 JLINK_ReadReg(R8)  returns 0xFFFFFFFF (0001ms, 0227ms total)
T1C48 001:737 JLINK_ReadReg(R9)  returns 0xFFFFFFFF (0000ms, 0227ms total)
T1C48 001:737 JLINK_ReadReg(R10)  returns 0xFFFFFFFF (0000ms, 0227ms total)
T1C48 001:737 JLINK_ReadReg(R11)  returns 0xFFFFFFFF (0000ms, 0227ms total)
T1C48 001:737 JLINK_ReadReg(R12)  returns 0xFFFFFFFF (0000ms, 0227ms total)
T1C48 001:737 JLINK_ReadReg(R13 (SP))  returns 0x10000FF8 (0000ms, 0227ms total)
T1C48 001:737 JLINK_ReadReg(R14)  returns 0x100001D1 (0000ms, 0227ms total)
T1C48 001:737 JLINK_ReadReg(R15 (PC))  returns 0x10000818 (0000ms, 0227ms total)
T1C48 001:737 JLINK_ReadReg(XPSR)  returns 0x61000000 (0000ms, 0227ms total)
T1C48 001:737 JLINK_ReadReg(MSP)  returns 0x10000FF8 (0000ms, 0227ms total)
T1C48 001:737 JLINK_ReadReg(PSP)  returns 0xFFFFFFFC (0000ms, 0227ms total)
T1C48 001:737 JLINK_ReadReg(CFBP)  returns 0x00000000 (0000ms, 0227ms total)
T3AE0 001:738 JLINK_ReadMem (0x00000000, 0x0004 Bytes, ...) -- CPU_ReadMem(4 bytes @ 0x00000000) - Data: F8 0F 00 10  returns 0x00 (0001ms, 0228ms total)
T3AE0 001:743 JLINK_ReadMem (0x10000818, 0x003C Bytes, ...) -- CPU_ReadMem(128 bytes @ 0x10000800) -- Updating DA cache (128 bytes @ 0x10000800) -- Read from DA cache (60 bytes @ 0x10000818) - Data: FF F7 CE FD 0E 48 FF F7 C5 FF 00 21 C9 43 4F 08 ...  returns 0x00 (0002ms, 0230ms total)
T1C48 010:939 JLINK_Step() -- Read from DA cache (2 bytes @ 0x10000818) -- CPU_ReadMem(4 bytes @ 0xE0001004) -- Not simulated -- CPU_WriteMem(4 bytes @ 0xE0002008)  returns 0x00 (0008ms, 0238ms total)
T1C48 010:947 JLINK_ReadReg(R15 (PC))  returns 0x100003B8 (0000ms, 0238ms total)
T1C48 010:947 JLINK_ReadReg(XPSR)  returns 0x61000000 (0000ms, 0238ms total)
T1C48 010:947 JLINK_ReadReg(R0)  returns 0x10000819 (0000ms, 0238ms total)
T1C48 010:947 JLINK_ReadReg(R1)  returns 0x10000FF8 (0000ms, 0238ms total)
T1C48 010:947 JLINK_ReadReg(R2)  returns 0x00000000 (0000ms, 0238ms total)
T1C48 010:947 JLINK_ReadReg(R3)  returns 0x100006C5 (0000ms, 0238ms total)
T1C48 010:947 JLINK_ReadReg(R4)  returns 0x10000CF0 (0000ms, 0238ms total)
T1C48 010:947 JLINK_ReadReg(R5)  returns 0x00000001 (0000ms, 0238ms total)
T1C48 010:947 JLINK_ReadReg(R6)  returns 0x10000CF0 (0000ms, 0238ms total)
T1C48 010:947 JLINK_ReadReg(R7)  returns 0x40000000 (0001ms, 0239ms total)
T1C48 010:948 JLINK_ReadReg(R8)  returns 0xFFFFFFFF (0000ms, 0239ms total)
T1C48 010:948 JLINK_ReadReg(R9)  returns 0xFFFFFFFF (0000ms, 0239ms total)
T1C48 010:948 JLINK_ReadReg(R10)  returns 0xFFFFFFFF (0000ms, 0239ms total)
T1C48 010:948 JLINK_ReadReg(R11)  returns 0xFFFFFFFF (0000ms, 0239ms total)
T1C48 010:948 JLINK_ReadReg(R12)  returns 0xFFFFFFFF (0000ms, 0239ms total)
T1C48 010:948 JLINK_ReadReg(R13 (SP))  returns 0x10000FF8 (0000ms, 0239ms total)
T1C48 010:948 JLINK_ReadReg(R14)  returns 0x1000081D (0000ms, 0239ms total)
T1C48 010:948 JLINK_ReadReg(R15 (PC))  returns 0x100003B8 (0000ms, 0239ms total)
T1C48 010:948 JLINK_ReadReg(XPSR)  returns 0x61000000 (0000ms, 0239ms total)
T1C48 010:948 JLINK_ReadReg(MSP)  returns 0x10000FF8 (0000ms, 0239ms total)
T1C48 010:948 JLINK_ReadReg(PSP)  returns 0xFFFFFFFC (0000ms, 0239ms total)
T1C48 010:948 JLINK_ReadReg(CFBP)  returns 0x00000000 (0000ms, 0239ms total)
T3AE0 010:951 JLINK_ReadMem (0x00000000, 0x0004 Bytes, ...) -- CPU_ReadMem(4 bytes @ 0x00000000) - Data: F8 0F 00 10  returns 0x00 (0001ms, 0240ms total)
T1C48 011:846 JLINK_ReadMem (0x100003B8, 0x003C Bytes, ...) -- CPU_ReadMem(128 bytes @ 0x10000380) -- Updating DA cache (128 bytes @ 0x10000380) -- Read from DA cache (60 bytes @ 0x100003B8) - Data: 70 B5 01 24 A4 07 00 22 21 13 D2 43 2E 48 FF F7 ...  returns 0x00 (0002ms, 0242ms total)
T1C48 011:848 JLINK_Step() -- Read from DA cache (2 bytes @ 0x100003B8) -- CPU_ReadMem(4 bytes @ 0xE0001004) -- Not simulated  returns 0x00 (0007ms, 0249ms total)
T1C48 011:855 JLINK_ReadReg(R15 (PC))  returns 0x100003BA (0000ms, 0249ms total)
T1C48 011:855 JLINK_ReadReg(XPSR)  returns 0x61000000 (0000ms, 0249ms total)
T1C48 011:855 JLINK_ReadReg(R0)  returns 0x10000819 (0000ms, 0249ms total)
T1C48 011:855 JLINK_ReadReg(R1)  returns 0x10000FF8 (0000ms, 0249ms total)
T1C48 011:855 JLINK_ReadReg(R2)  returns 0x00000000 (0000ms, 0249ms total)
T1C48 011:855 JLINK_ReadReg(R3)  returns 0x100006C5 (0000ms, 0249ms total)
T1C48 011:855 JLINK_ReadReg(R4)  returns 0x10000CF0 (0000ms, 0249ms total)
T1C48 011:855 JLINK_ReadReg(R5)  returns 0x00000001 (0000ms, 0249ms total)
T1C48 011:855 JLINK_ReadReg(R6)  returns 0x10000CF0 (0000ms, 0249ms total)
T1C48 011:855 JLINK_ReadReg(R7)  returns 0x40000000 (0000ms, 0249ms total)
T1C48 011:855 JLINK_ReadReg(R8)  returns 0xFFFFFFFF (0000ms, 0249ms total)
T1C48 011:855 JLINK_ReadReg(R9)  returns 0xFFFFFFFF (0000ms, 0249ms total)
T1C48 011:855 JLINK_ReadReg(R10)  returns 0xFFFFFFFF (0000ms, 0249ms total)
T1C48 011:855 JLINK_ReadReg(R11)  returns 0xFFFFFFFF (0000ms, 0249ms total)
T1C48 011:855 JLINK_ReadReg(R12)  returns 0xFFFFFFFF (0000ms, 0249ms total)
T1C48 011:855 JLINK_ReadReg(R13 (SP))  returns 0x10000FE8 (0000ms, 0249ms total)
T1C48 011:855 JLINK_ReadReg(R14)  returns 0x1000081D (0000ms, 0249ms total)
T1C48 011:855 JLINK_ReadReg(R15 (PC))  returns 0x100003BA (0000ms, 0249ms total)
T1C48 011:855 JLINK_ReadReg(XPSR)  returns 0x61000000 (0000ms, 0249ms total)
T1C48 011:855 JLINK_ReadReg(MSP)  returns 0x10000FE8 (0000ms, 0249ms total)
T1C48 011:855 JLINK_ReadReg(PSP)  returns 0xFFFFFFFC (0000ms, 0249ms total)
T1C48 011:855 JLINK_ReadReg(CFBP)  returns 0x00000000 (0000ms, 0249ms total)
T3AE0 011:855 JLINK_ReadMem (0x10000FF4, 0x0004 Bytes, ...) -- CPU_ReadMem(64 bytes @ 0x10000FC0) -- Updating DA cache (64 bytes @ 0x10000FC0) -- Read from DA cache (4 bytes @ 0x10000FF4) - Data: 1D 08 00 10  returns 0x00 (0002ms, 0251ms total)
T3AE0 011:857 JLINK_ReadMem (0x10000FE8, 0x0004 Bytes, ...) -- Read from DA cache (4 bytes @ 0x10000FE8) - Data: F0 0C 00 10  returns 0x00 (0000ms, 0251ms total)
T3AE0 011:857 JLINK_ReadMem (0x10000FEC, 0x0004 Bytes, ...) -- Read from DA cache (4 bytes @ 0x10000FEC) - Data: 01 00 00 00  returns 0x00 (0000ms, 0251ms total)
T3AE0 011:857 JLINK_ReadMem (0x10000FF0, 0x0004 Bytes, ...) -- Read from DA cache (4 bytes @ 0x10000FF0) - Data: F0 0C 00 10  returns 0x00 (0000ms, 0251ms total)
T3AE0 011:857 JLINK_ReadMem (0x00000000, 0x0004 Bytes, ...) -- CPU_ReadMem(4 bytes @ 0x00000000) - Data: F8 0F 00 10  returns 0x00 (0001ms, 0252ms total)
T3AE0 011:859 JLINK_ReadMem (0x100003BA, 0x0002 Bytes, ...) -- CPU_ReadMem(64 bytes @ 0x10000380) -- Updating DA cache (64 bytes @ 0x10000380) -- Read from DA cache (2 bytes @ 0x100003BA) - Data: 01 24  returns 0x00 (0002ms, 0254ms total)
T3AE0 011:861 JLINK_ReadMem (0x100003BC, 0x003C Bytes, ...) -- CPU_ReadMem(64 bytes @ 0x100003C0) -- Updating DA cache (64 bytes @ 0x100003C0) -- Read from DA cache (60 bytes @ 0x100003BC) - Data: A4 07 00 22 21 13 D2 43 2E 48 FF F7 0F FF 2E 4D ...  returns 0x00 (0001ms, 0255ms total)
T1C48 015:742 JLINK_Step() -- Read from DA cache (2 bytes @ 0x100003BA) -- CPU_ReadMem(4 bytes @ 0xE0001004) -- Simulated  returns 0x00 (0004ms, 0259ms total)
T1C48 015:746 JLINK_ReadReg(R15 (PC))  returns 0x100003BC (0000ms, 0259ms total)
T1C48 015:746 JLINK_ReadReg(XPSR)  returns 0x21000000 (0000ms, 0259ms total)
T1C48 015:746 JLINK_Step() -- Read from DA cache (2 bytes @ 0x100003BC) -- Simulated  returns 0x00 (0000ms, 0259ms total)
T1C48 015:746 JLINK_ReadReg(R15 (PC))  returns 0x100003BE (0000ms, 0259ms total)
T1C48 015:746 JLINK_ReadReg(XPSR)  returns 0x01000000 (0000ms, 0259ms total)
T1C48 015:746 JLINK_Step() -- Read from DA cache (2 bytes @ 0x100003BE) -- Simulated  returns 0x00 (0000ms, 0259ms total)
T1C48 015:746 JLINK_ReadReg(R15 (PC))  returns 0x100003C0 (0000ms, 0259ms total)
T1C48 015:746 JLINK_ReadReg(XPSR)  returns 0x41000000 (0000ms, 0259ms total)
T1C48 015:746 JLINK_Step() -- Read from DA cache (2 bytes @ 0x100003C0) -- Simulated  returns 0x00 (0000ms, 0259ms total)
T1C48 015:746 JLINK_ReadReg(R15 (PC))  returns 0x100003C2 (0000ms, 0259ms total)
T1C48 015:746 JLINK_ReadReg(XPSR)  returns 0x01000000 (0000ms, 0259ms total)
T1C48 015:746 JLINK_Step() -- Read from DA cache (2 bytes @ 0x100003C2) -- Simulated  returns 0x00 (0000ms, 0259ms total)
T1C48 015:746 JLINK_ReadReg(R15 (PC))  returns 0x100003C4 (0000ms, 0259ms total)
T1C48 015:746 JLINK_ReadReg(XPSR)  returns 0x81000000 (0000ms, 0259ms total)
T1C48 015:746 JLINK_SetBPEx(Addr = 0x100003D4, Type = 0xFFFFFFF2)  returns 0x00000002 (0000ms, 0259ms total)
T1C48 015:746 JLINK_Go() -- CPU_WriteMem(4 bytes @ 0xE0002000) -- CPU_WriteMem(4 bytes @ 0xE0002008) -- CPU_WriteMem(4 bytes @ 0xE0001004) (0007ms, 0266ms total)
T1C48 015:853 JLINK_IsHalted()  returns TRUE (0003ms, 0269ms total)
T1C48 015:856 JLINK_Halt()  returns 0x00 (0000ms, 0266ms total)
T1C48 015:856 JLINK_IsHalted()  returns TRUE (0000ms, 0266ms total)
T1C48 015:856 JLINK_IsHalted()  returns TRUE (0000ms, 0266ms total)
T1C48 015:856 JLINK_IsHalted()  returns TRUE (0000ms, 0266ms total)
T1C48 015:856 JLINK_ReadReg(R15 (PC))  returns 0x100003D4 (0000ms, 0266ms total)
T1C48 015:856 JLINK_ReadReg(XPSR)  returns 0x01000000 (0000ms, 0266ms total)
T1C48 015:856 JLINK_ClrBPEx(BPHandle = 0x00000002)  returns 0x00 (0000ms, 0266ms total)
T1C48 015:856 JLINK_ReadMemU32(0xE000ED30, 0x0001 Items, ...) -- CPU_ReadMem(4 bytes @ 0xE000ED30) - Data: 03 00 00 00  returns 0x01 (0001ms, 0267ms total)
T1C48 015:857 JLINK_ReadMemU32(0xE0001028, 0x0001 Items, ...) -- CPU_ReadMem(4 bytes @ 0xE0001028) - Data: 00 00 00 00  returns 0x01 (0001ms, 0268ms total)
T1C48 015:858 JLINK_ReadMemU32(0xE0001038, 0x0001 Items, ...) -- CPU_ReadMem(4 bytes @ 0xE0001038) - Data: 00 00 00 00  returns 0x01 (0001ms, 0269ms total)
T1C48 015:859 JLINK_ReadReg(R0)  returns 0x40000008 (0000ms, 0269ms total)
T1C48 015:859 JLINK_ReadReg(R1)  returns 0xC0000000 (0000ms, 0269ms total)
T1C48 015:859 JLINK_ReadReg(R2)  returns 0x00000000 (0000ms, 0269ms total)
T1C48 015:859 JLINK_ReadReg(R3)  returns 0x8B3C6520 (0000ms, 0269ms total)
T1C48 015:859 JLINK_ReadReg(R4)  returns 0x40000000 (0000ms, 0269ms total)
T1C48 015:859 JLINK_ReadReg(R5)  returns 0x00F42400 (0000ms, 0269ms total)
T1C48 015:859 JLINK_ReadReg(R6)  returns 0x10000CF0 (0000ms, 0269ms total)
T1C48 015:859 JLINK_ReadReg(R7)  returns 0x40000000 (0000ms, 0269ms total)
T1C48 015:859 JLINK_ReadReg(R8)  returns 0xFFFFFFFF (0000ms, 0269ms total)
T1C48 015:859 JLINK_ReadReg(R9)  returns 0xFFFFFFFF (0000ms, 0269ms total)
T1C48 015:859 JLINK_ReadReg(R10)  returns 0xFFFFFFFF (0000ms, 0269ms total)
T1C48 015:859 JLINK_ReadReg(R11)  returns 0xFFFFFFFF (0001ms, 0270ms total)
T1C48 015:860 JLINK_ReadReg(R12)  returns 0xFFFFFFFF (0000ms, 0270ms total)
T1C48 015:860 JLINK_ReadReg(R13 (SP))  returns 0x10000FE8 (0000ms, 0270ms total)
T1C48 015:860 JLINK_ReadReg(R14)  returns 0x10000A1B (0000ms, 0270ms total)
T1C48 015:860 JLINK_ReadReg(R15 (PC))  returns 0x100003D4 (0000ms, 0270ms total)
T1C48 015:860 JLINK_ReadReg(XPSR)  returns 0x01000000 (0000ms, 0270ms total)
T1C48 015:860 JLINK_ReadReg(MSP)  returns 0x10000FE8 (0000ms, 0270ms total)
T1C48 015:860 JLINK_ReadReg(PSP)  returns 0xFFFFFFFC (0000ms, 0270ms total)
T1C48 015:860 JLINK_ReadReg(CFBP)  returns 0x00000000 (0000ms, 0270ms total)
T3AE0 015:860 JLINK_ReadMem (0x10000FF4, 0x0004 Bytes, ...) -- CPU_ReadMem(64 bytes @ 0x10000FC0) -- Updating DA cache (64 bytes @ 0x10000FC0) -- Read from DA cache (4 bytes @ 0x10000FF4) - Data: 1D 08 00 10  returns 0x00 (0002ms, 0272ms total)
T3AE0 015:862 JLINK_ReadMem (0x10000FE8, 0x0004 Bytes, ...) -- Read from DA cache (4 bytes @ 0x10000FE8) - Data: F0 0C 00 10  returns 0x00 (0000ms, 0272ms total)
T3AE0 015:862 JLINK_ReadMem (0x10000FEC, 0x0004 Bytes, ...) -- Read from DA cache (4 bytes @ 0x10000FEC) - Data: 01 00 00 00  returns 0x00 (0000ms, 0272ms total)
T3AE0 015:862 JLINK_ReadMem (0x10000FF0, 0x0004 Bytes, ...) -- Read from DA cache (4 bytes @ 0x10000FF0) - Data: F0 0C 00 10  returns 0x00 (0000ms, 0272ms total)
T3AE0 015:862 JLINK_ReadMem (0x00000000, 0x0004 Bytes, ...) -- CPU_ReadMem(4 bytes @ 0x00000000) - Data: F8 0F 00 10  returns 0x00 (0001ms, 0273ms total)
T3AE0 015:864 JLINK_ReadMem (0x100003D4, 0x002C Bytes, ...) -- CPU_ReadMem(64 bytes @ 0x100003C0) -- Updating DA cache (64 bytes @ 0x100003C0) -- Read from DA cache (44 bytes @ 0x100003D4) - Data: 00 20 00 F0 81 F9 00 F0 41 FA 28 48 E1 11 00 22 ...  returns 0x00 (0001ms, 0274ms total)
T3AE0 015:865 JLINK_ReadMem (0x10000400, 0x0010 Bytes, ...) -- CPU_ReadMem(64 bytes @ 0x10000400) -- Updating DA cache (64 bytes @ 0x10000400) -- Read from DA cache (16 bytes @ 0x10000400) - Data: 20 1D FF F7 ED FE 20 49 20 46 FF F7 E9 FE 29 46  returns 0x00 (0002ms, 0276ms total)
T1C48 017:255 JLINK_Step() -- Read from DA cache (2 bytes @ 0x100003D4) -- CPU_ReadMem(4 bytes @ 0xE0001004) -- Simulated  returns 0x00 (0005ms, 0281ms total)
T1C48 017:260 JLINK_ReadReg(R15 (PC))  returns 0x100003D6 (0000ms, 0281ms total)
T1C48 017:260 JLINK_ReadReg(XPSR)  returns 0x41000000 (0000ms, 0281ms total)
T1C48 017:260 JLINK_SetBPEx(Addr = 0x100003DA, Type = 0xFFFFFFF2)  returns 0x00000003 (0000ms, 0281ms total)
T1C48 017:260 JLINK_Go() -- CPU_WriteMem(4 bytes @ 0xE0002000) -- CPU_WriteMem(4 bytes @ 0xE0002008) -- CPU_WriteMem(4 bytes @ 0xE0001004) (0005ms, 0286ms total)
T1C48 017:365 JLINK_IsHalted()  returns TRUE (0003ms, 0289ms total)
T1C48 017:368 JLINK_Halt()  returns 0x00 (0000ms, 0286ms total)
T1C48 017:368 JLINK_IsHalted()  returns TRUE (0000ms, 0286ms total)
T1C48 017:368 JLINK_IsHalted()  returns TRUE (0000ms, 0286ms total)
T1C48 017:368 JLINK_IsHalted()  returns TRUE (0000ms, 0286ms total)
T1C48 017:368 JLINK_ReadReg(R15 (PC))  returns 0x100003DA (0000ms, 0286ms total)
T1C48 017:368 JLINK_ReadReg(XPSR)  returns 0x01000000 (0000ms, 0286ms total)
T1C48 017:368 JLINK_ClrBPEx(BPHandle = 0x00000003)  returns 0x00 (0000ms, 0286ms total)
T1C48 017:368 JLINK_ReadMemU32(0xE000ED30, 0x0001 Items, ...) -- CPU_ReadMem(4 bytes @ 0xE000ED30) - Data: 03 00 00 00  returns 0x01 (0001ms, 0287ms total)
T1C48 017:369 JLINK_ReadMemU32(0xE0001028, 0x0001 Items, ...) -- CPU_ReadMem(4 bytes @ 0xE0001028) - Data: 00 00 00 00  returns 0x01 (0001ms, 0288ms total)
T1C48 017:370 JLINK_ReadMemU32(0xE0001038, 0x0001 Items, ...) -- CPU_ReadMem(4 bytes @ 0xE0001038) - Data: 00 00 00 00  returns 0x01 (0001ms, 0289ms total)
T1C48 017:371 JLINK_ReadReg(R0)  returns 0x4000C000 (0000ms, 0289ms total)
T1C48 017:371 JLINK_ReadReg(R1)  returns 0x20000000 (0000ms, 0289ms total)
T1C48 017:371 JLINK_ReadReg(R2)  returns 0x00000000 (0000ms, 0289ms total)
T1C48 017:371 JLINK_ReadReg(R3)  returns 0x00800F04 (0000ms, 0289ms total)
T1C48 017:371 JLINK_ReadReg(R4)  returns 0x40000000 (0000ms, 0289ms total)
T1C48 017:371 JLINK_ReadReg(R5)  returns 0x00F42400 (0000ms, 0289ms total)
T1C48 017:371 JLINK_ReadReg(R6)  returns 0x10000CF0 (0000ms, 0289ms total)
T1C48 017:371 JLINK_ReadReg(R7)  returns 0x40000000 (0000ms, 0289ms total)
T1C48 017:371 JLINK_ReadReg(R8)  returns 0xFFFFFFFF (0000ms, 0289ms total)
T1C48 017:371 JLINK_ReadReg(R9)  returns 0xFFFFFFFF (0000ms, 0289ms total)
T1C48 017:371 JLINK_ReadReg(R10)  returns 0xFFFFFFFF (0000ms, 0289ms total)
T1C48 017:371 JLINK_ReadReg(R11)  returns 0xFFFFFFFF (0000ms, 0289ms total)
T1C48 017:371 JLINK_ReadReg(R12)  returns 0xFFFFFFFF (0000ms, 0289ms total)
T1C48 017:371 JLINK_ReadReg(R13 (SP))  returns 0x10000FE8 (0000ms, 0289ms total)
T1C48 017:372 JLINK_ReadReg(R14)  returns 0x100006D9 (0000ms, 0290ms total)
T1C48 017:372 JLINK_ReadReg(R15 (PC))  returns 0x100003DA (0000ms, 0290ms total)
T1C48 017:372 JLINK_ReadReg(XPSR)  returns 0x01000000 (0000ms, 0290ms total)
T1C48 017:372 JLINK_ReadReg(MSP)  returns 0x10000FE8 (0000ms, 0290ms total)
T1C48 017:372 JLINK_ReadReg(PSP)  returns 0xFFFFFFFC (0000ms, 0290ms total)
T1C48 017:372 JLINK_ReadReg(CFBP)  returns 0x00000000 (0000ms, 0290ms total)
T3AE0 017:372 JLINK_ReadMem (0x10000FF4, 0x0004 Bytes, ...) -- CPU_ReadMem(64 bytes @ 0x10000FC0) -- Updating DA cache (64 bytes @ 0x10000FC0) -- Read from DA cache (4 bytes @ 0x10000FF4) - Data: 1D 08 00 10  returns 0x00 (0001ms, 0291ms total)
T3AE0 017:373 JLINK_ReadMem (0x10000FE8, 0x0004 Bytes, ...) -- Read from DA cache (4 bytes @ 0x10000FE8) - Data: F0 0C 00 10  returns 0x00 (0000ms, 0291ms total)
T3AE0 017:373 JLINK_ReadMem (0x10000FEC, 0x0004 Bytes, ...) -- Read from DA cache (4 bytes @ 0x10000FEC) - Data: 01 00 00 00  returns 0x00 (0000ms, 0291ms total)
T3AE0 017:373 JLINK_ReadMem (0x10000FF0, 0x0004 Bytes, ...) -- Read from DA cache (4 bytes @ 0x10000FF0) - Data: F0 0C 00 10  returns 0x00 (0000ms, 0291ms total)
T3AE0 017:373 JLINK_ReadMem (0x00000000, 0x0004 Bytes, ...) -- CPU_ReadMem(4 bytes @ 0x00000000) - Data: F8 0F 00 10  returns 0x00 (0001ms, 0292ms total)
T1C48 018:078 JLINK_ReadMem (0x100003DA, 0x0002 Bytes, ...) -- CPU_ReadMem(64 bytes @ 0x100003C0) -- Updating DA cache (64 bytes @ 0x100003C0) -- Read from DA cache (2 bytes @ 0x100003DA) - Data: 00 F0  returns 0x00 (0002ms, 0294ms total)
T1C48 018:080 JLINK_ReadMem (0x100003DC, 0x0024 Bytes, ...) -- Read from DA cache (36 bytes @ 0x100003DC) - Data: 41 FA 28 48 E1 11 00 22 0C 38 FF F7 FF FE 25 48 ...  returns 0x00 (0000ms, 0294ms total)
T1C48 018:080 JLINK_ReadMem (0x10000400, 0x0018 Bytes, ...) -- CPU_ReadMem(64 bytes @ 0x10000400) -- Updating DA cache (64 bytes @ 0x10000400) -- Read from DA cache (24 bytes @ 0x10000400) - Data: 20 1D FF F7 ED FE 20 49 20 46 FF F7 E9 FE 29 46 ...  returns 0x00 (0001ms, 0295ms total)
T1C48 018:081 JLINK_SetBPEx(Addr = 0x100003DE, Type = 0xFFFFFFF2)  returns 0x00000004 (0000ms, 0295ms total)
T1C48 018:081 JLINK_Go() -- CPU_WriteMem(4 bytes @ 0xE0002000) -- CPU_WriteMem(4 bytes @ 0xE0002008) (0004ms, 0299ms total)
T1C48 018:185 JLINK_IsHalted()  returns TRUE (0003ms, 0302ms total)
T1C48 018:188 JLINK_Halt()  returns 0x00 (0000ms, 0299ms total)
T1C48 018:188 JLINK_IsHalted()  returns TRUE (0000ms, 0299ms total)
T1C48 018:188 JLINK_IsHalted()  returns TRUE (0000ms, 0299ms total)
T1C48 018:188 JLINK_IsHalted()  returns TRUE (0000ms, 0299ms total)
T1C48 018:188 JLINK_ReadReg(R15 (PC))  returns 0x100003DE (0000ms, 0299ms total)
T1C48 018:188 JLINK_ReadReg(XPSR)  returns 0xA1000000 (0000ms, 0299ms total)
T1C48 018:188 JLINK_ClrBPEx(BPHandle = 0x00000004)  returns 0x00 (0000ms, 0299ms total)
T1C48 018:188 JLINK_ReadMemU32(0xE000ED30, 0x0001 Items, ...) -- CPU_ReadMem(4 bytes @ 0xE000ED30) - Data: 03 00 00 00  returns 0x01 (0001ms, 0300ms total)
T1C48 018:189 JLINK_ReadMemU32(0xE0001028, 0x0001 Items, ...) -- CPU_ReadMem(4 bytes @ 0xE0001028) - Data: 00 00 00 00  returns 0x01 (0001ms, 0301ms total)
T1C48 018:190 JLINK_ReadMemU32(0xE0001038, 0x0001 Items, ...) -- CPU_ReadMem(4 bytes @ 0xE0001038) - Data: 00 00 00 00  returns 0x01 (0001ms, 0302ms total)
T1C48 018:191 JLINK_ReadReg(R0)  returns 0xE5000000 (0000ms, 0302ms total)
T1C48 018:191 JLINK_ReadReg(R1)  returns 0x00008000 (0000ms, 0302ms total)
T1C48 018:191 JLINK_ReadReg(R2)  returns 0x00008000 (0000ms, 0302ms total)
T1C48 018:191 JLINK_ReadReg(R3)  returns 0x00808F04 (0000ms, 0302ms total)
T1C48 018:191 JLINK_ReadReg(R4)  returns 0x40000000 (0000ms, 0302ms total)
T1C48 018:191 JLINK_ReadReg(R5)  returns 0x00F42400 (0000ms, 0302ms total)
T1C48 018:191 JLINK_ReadReg(R6)  returns 0x10000CF0 (0000ms, 0302ms total)
T1C48 018:191 JLINK_ReadReg(R7)  returns 0x40000000 (0000ms, 0302ms total)
T1C48 018:191 JLINK_ReadReg(R8)  returns 0xFFFFFFFF (0000ms, 0302ms total)
T1C48 018:191 JLINK_ReadReg(R9)  returns 0xFFFFFFFF (0000ms, 0302ms total)
T1C48 018:191 JLINK_ReadReg(R10)  returns 0xFFFFFFFF (0000ms, 0302ms total)
T1C48 018:191 JLINK_ReadReg(R11)  returns 0xFFFFFFFF (0000ms, 0302ms total)
T1C48 018:191 JLINK_ReadReg(R12)  returns 0xFFFFFFFF (0000ms, 0302ms total)
T1C48 018:191 JLINK_ReadReg(R13 (SP))  returns 0x10000FE8 (0000ms, 0302ms total)
T1C48 018:191 JLINK_ReadReg(R14)  returns 0x10000887 (0000ms, 0302ms total)
T1C48 018:191 JLINK_ReadReg(R15 (PC))  returns 0x100003DE (0000ms, 0302ms total)
T1C48 018:191 JLINK_ReadReg(XPSR)  returns 0xA1000000 (0000ms, 0302ms total)
T1C48 018:191 JLINK_ReadReg(MSP)  returns 0x10000FE8 (0000ms, 0302ms total)
T1C48 018:191 JLINK_ReadReg(PSP)  returns 0xFFFFFFFC (0000ms, 0302ms total)
T1C48 018:191 JLINK_ReadReg(CFBP)  returns 0x00000000 (0000ms, 0302ms total)
T3AE0 018:192 JLINK_ReadMem (0x10000FF4, 0x0004 Bytes, ...) -- CPU_ReadMem(64 bytes @ 0x10000FC0) -- Updating DA cache (64 bytes @ 0x10000FC0) -- Read from DA cache (4 bytes @ 0x10000FF4) - Data: 1D 08 00 10  returns 0x00 (0001ms, 0303ms total)
T3AE0 018:193 JLINK_ReadMem (0x10000FE8, 0x0004 Bytes, ...) -- Read from DA cache (4 bytes @ 0x10000FE8) - Data: F0 0C 00 10  returns 0x00 (0000ms, 0303ms total)
T3AE0 018:193 JLINK_ReadMem (0x10000FEC, 0x0004 Bytes, ...) -- Read from DA cache (4 bytes @ 0x10000FEC) - Data: 01 00 00 00  returns 0x00 (0000ms, 0303ms total)
T3AE0 018:193 JLINK_ReadMem (0x10000FF0, 0x0004 Bytes, ...) -- Read from DA cache (4 bytes @ 0x10000FF0) - Data: F0 0C 00 10  returns 0x00 (0000ms, 0303ms total)
T3AE0 018:195 JLINK_ReadMem (0x00000000, 0x0004 Bytes, ...) -- CPU_ReadMem(4 bytes @ 0x00000000) - Data: F8 0F 00 10  returns 0x00 (0002ms, 0305ms total)
T3AE0 018:201 JLINK_ReadMem (0x100003DE, 0x0002 Bytes, ...) -- CPU_ReadMem(64 bytes @ 0x100003C0) -- Updating DA cache (64 bytes @ 0x100003C0) -- Read from DA cache (2 bytes @ 0x100003DE) - Data: 28 48  returns 0x00 (0001ms, 0306ms total)
T3AE0 018:202 JLINK_ReadMem (0x100003E0, 0x0020 Bytes, ...) -- Read from DA cache (32 bytes @ 0x100003E0) - Data: E1 11 00 22 0C 38 FF F7 FF FE 25 48 61 10 00 22 ...  returns 0x00 (0001ms, 0307ms total)
T3AE0 018:203 JLINK_ReadMem (0x10000400, 0x001C Bytes, ...) -- CPU_ReadMem(64 bytes @ 0x10000400) -- Updating DA cache (64 bytes @ 0x10000400) -- Read from DA cache (28 bytes @ 0x10000400) - Data: 20 1D FF F7 ED FE 20 49 20 46 FF F7 E9 FE 29 46 ...  returns 0x00 (0001ms, 0308ms total)
T1C48 019:326 JLINK_SetBPEx(Addr = 0x100003F8, Type = 0xFFFFFFF2)  returns 0x00000005 (0002ms, 0310ms total)
T1C48 019:328 JLINK_Go() -- CPU_WriteMem(4 bytes @ 0xE0002000) -- CPU_WriteMem(4 bytes @ 0xE0002008) (0004ms, 0314ms total)
T1C48 019:432 JLINK_IsHalted()  returns TRUE (0003ms, 0317ms total)
T1C48 019:435 JLINK_Halt()  returns 0x00 (0000ms, 0314ms total)
T1C48 019:435 JLINK_IsHalted()  returns TRUE (0000ms, 0314ms total)
T1C48 019:435 JLINK_IsHalted()  returns TRUE (0000ms, 0314ms total)
T1C48 019:435 JLINK_IsHalted()  returns TRUE (0000ms, 0314ms total)
T1C48 019:435 JLINK_ReadReg(R15 (PC))  returns 0x100003F8 (0000ms, 0314ms total)
T1C48 019:435 JLINK_ReadReg(XPSR)  returns 0x21000000 (0000ms, 0314ms total)
T1C48 019:435 JLINK_ClrBPEx(BPHandle = 0x00000005)  returns 0x00 (0000ms, 0314ms total)
T1C48 019:435 JLINK_ReadMemU32(0xE000ED30, 0x0001 Items, ...) -- CPU_ReadMem(4 bytes @ 0xE000ED30) - Data: 03 00 00 00  returns 0x01 (0001ms, 0315ms total)
T1C48 019:436 JLINK_ReadMemU32(0xE0001028, 0x0001 Items, ...) -- CPU_ReadMem(4 bytes @ 0xE0001028) - Data: 00 00 00 00  returns 0x01 (0001ms, 0316ms total)
T1C48 019:437 JLINK_ReadMemU32(0xE0001038, 0x0001 Items, ...) -- CPU_ReadMem(4 bytes @ 0xE0001038) - Data: 00 00 00 00  returns 0x01 (0001ms, 0317ms total)
T1C48 019:438 JLINK_ReadReg(R0)  returns 0x40000008 (0000ms, 0317ms total)
T1C48 019:438 JLINK_ReadReg(R1)  returns 0x00000008 (0000ms, 0317ms total)
T1C48 019:438 JLINK_ReadReg(R2)  returns 0x00000000 (0000ms, 0317ms total)
T1C48 019:438 JLINK_ReadReg(R3)  returns 0x1A008818 (0000ms, 0317ms total)
T1C48 019:438 JLINK_ReadReg(R4)  returns 0x40000000 (0000ms, 0317ms total)
T1C48 019:438 JLINK_ReadReg(R5)  returns 0x00F42400 (0000ms, 0317ms total)
T1C48 019:438 JLINK_ReadReg(R6)  returns 0x10000CF0 (0000ms, 0317ms total)
T1C48 019:438 JLINK_ReadReg(R7)  returns 0x40000000 (0000ms, 0317ms total)
T1C48 019:438 JLINK_ReadReg(R8)  returns 0xFFFFFFFF (0000ms, 0317ms total)
T1C48 019:438 JLINK_ReadReg(R9)  returns 0xFFFFFFFF (0000ms, 0317ms total)
T1C48 019:438 JLINK_ReadReg(R10)  returns 0xFFFFFFFF (0000ms, 0317ms total)
T1C48 019:438 JLINK_ReadReg(R11)  returns 0xFFFFFFFF (0000ms, 0317ms total)
T1C48 019:438 JLINK_ReadReg(R12)  returns 0xFFFFFFFF (0000ms, 0317ms total)
T1C48 019:438 JLINK_ReadReg(R13 (SP))  returns 0x10000FE8 (0000ms, 0317ms total)
T1C48 019:438 JLINK_ReadReg(R14)  returns 0x100003F7 (0000ms, 0317ms total)
T1C48 019:438 JLINK_ReadReg(R15 (PC))  returns 0x100003F8 (0000ms, 0317ms total)
T1C48 019:438 JLINK_ReadReg(XPSR)  returns 0x21000000 (0000ms, 0317ms total)
T1C48 019:438 JLINK_ReadReg(MSP)  returns 0x10000FE8 (0000ms, 0317ms total)
T1C48 019:438 JLINK_ReadReg(PSP)  returns 0xFFFFFFFC (0000ms, 0317ms total)
T1C48 019:438 JLINK_ReadReg(CFBP)  returns 0x00000000 (0000ms, 0317ms total)
T3AE0 019:439 JLINK_ReadMem (0x10000FF4, 0x0004 Bytes, ...) -- CPU_ReadMem(64 bytes @ 0x10000FC0) -- Updating DA cache (64 bytes @ 0x10000FC0) -- Read from DA cache (4 bytes @ 0x10000FF4) - Data: 1D 08 00 10  returns 0x00 (0001ms, 0318ms total)
T3AE0 019:440 JLINK_ReadMem (0x10000FE8, 0x0004 Bytes, ...) -- Read from DA cache (4 bytes @ 0x10000FE8) - Data: F0 0C 00 10  returns 0x00 (0000ms, 0318ms total)
T3AE0 019:440 JLINK_ReadMem (0x10000FEC, 0x0004 Bytes, ...) -- Read from DA cache (4 bytes @ 0x10000FEC) - Data: 01 00 00 00  returns 0x00 (0000ms, 0318ms total)
T3AE0 019:440 JLINK_ReadMem (0x10000FF0, 0x0004 Bytes, ...) -- Read from DA cache (4 bytes @ 0x10000FF0) - Data: F0 0C 00 10  returns 0x00 (0000ms, 0318ms total)
T3AE0 019:442 JLINK_ReadMem (0x00000000, 0x0004 Bytes, ...) -- CPU_ReadMem(4 bytes @ 0x00000000) - Data: F8 0F 00 10  returns 0x00 (0002ms, 0320ms total)
T3AE0 019:449 JLINK_ReadMem (0x100003F8, 0x0008 Bytes, ...) -- CPU_ReadMem(64 bytes @ 0x100003C0) -- Updating DA cache (64 bytes @ 0x100003C0) -- Read from DA cache (8 bytes @ 0x100003F8) - Data: 20 46 FF F7 F1 FE 08 21  returns 0x00 (0002ms, 0322ms total)
T3AE0 019:451 JLINK_ReadMem (0x10000400, 0x0034 Bytes, ...) -- CPU_ReadMem(64 bytes @ 0x10000400) -- Updating DA cache (64 bytes @ 0x10000400) -- Read from DA cache (52 bytes @ 0x10000400) - Data: 20 1D FF F7 ED FE 20 49 20 46 FF F7 E9 FE 29 46 ...  returns 0x00 (0002ms, 0324ms total)
T1C48 019:998 JLINK_SetBPEx(Addr = 0x10000400, Type = 0xFFFFFFF2)  returns 0x00000006 (0000ms, 0324ms total)
T1C48 019:998 JLINK_Go() -- CPU_WriteMem(4 bytes @ 0xE0002000) -- CPU_WriteMem(4 bytes @ 0xE0002008) (0005ms, 0329ms total)
T1C48 020:103 JLINK_IsHalted()  returns TRUE (0003ms, 0332ms total)
T1C48 020:106 JLINK_Halt()  returns 0x00 (0000ms, 0329ms total)
T1C48 020:106 JLINK_IsHalted()  returns TRUE (0000ms, 0329ms total)
T1C48 020:106 JLINK_IsHalted()  returns TRUE (0000ms, 0329ms total)
T1C48 020:106 JLINK_IsHalted()  returns TRUE (0000ms, 0329ms total)
T1C48 020:106 JLINK_ReadReg(R15 (PC))  returns 0x10000400 (0000ms, 0329ms total)
T1C48 020:106 JLINK_ReadReg(XPSR)  returns 0x21000000 (0000ms, 0329ms total)
T1C48 020:106 JLINK_ClrBPEx(BPHandle = 0x00000006)  returns 0x00 (0000ms, 0329ms total)
T1C48 020:106 JLINK_ReadMemU32(0xE000ED30, 0x0001 Items, ...) -- CPU_ReadMem(4 bytes @ 0xE000ED30) - Data: 03 00 00 00  returns 0x01 (0001ms, 0330ms total)
T1C48 020:107 JLINK_ReadMemU32(0xE0001028, 0x0001 Items, ...) -- CPU_ReadMem(4 bytes @ 0xE0001028) - Data: 00 00 00 00  returns 0x01 (0001ms, 0331ms total)
T1C48 020:108 JLINK_ReadMemU32(0xE0001038, 0x0001 Items, ...) -- CPU_ReadMem(4 bytes @ 0xE0001038) - Data: 00 00 00 00  returns 0x01 (0001ms, 0332ms total)
T1C48 020:109 JLINK_ReadReg(R0)  returns 0x40000000 (0000ms, 0332ms total)
T1C48 020:109 JLINK_ReadReg(R1)  returns 0x00000008 (0000ms, 0332ms total)
T1C48 020:109 JLINK_ReadReg(R2)  returns 0x00000000 (0000ms, 0332ms total)
T1C48 020:109 JLINK_ReadReg(R3)  returns 0x1A008818 (0000ms, 0332ms total)
T1C48 020:109 JLINK_ReadReg(R4)  returns 0x40000000 (0000ms, 0332ms total)
T1C48 020:109 JLINK_ReadReg(R5)  returns 0x00F42400 (0000ms, 0332ms total)
T1C48 020:109 JLINK_ReadReg(R6)  returns 0x10000CF0 (0000ms, 0332ms total)
T1C48 020:109 JLINK_ReadReg(R7)  returns 0x40000000 (0000ms, 0332ms total)
T1C48 020:109 JLINK_ReadReg(R8)  returns 0xFFFFFFFF (0000ms, 0332ms total)
T1C48 020:109 JLINK_ReadReg(R9)  returns 0xFFFFFFFF (0000ms, 0332ms total)
T1C48 020:109 JLINK_ReadReg(R10)  returns 0xFFFFFFFF (0000ms, 0332ms total)
T1C48 020:109 JLINK_ReadReg(R11)  returns 0xFFFFFFFF (0000ms, 0332ms total)
T1C48 020:109 JLINK_ReadReg(R12)  returns 0xFFFFFFFF (0000ms, 0332ms total)
T1C48 020:109 JLINK_ReadReg(R13 (SP))  returns 0x10000FE8 (0000ms, 0332ms total)
T1C48 020:109 JLINK_ReadReg(R14)  returns 0x100003FF (0000ms, 0332ms total)
T1C48 020:109 JLINK_ReadReg(R15 (PC))  returns 0x10000400 (0000ms, 0332ms total)
T1C48 020:109 JLINK_ReadReg(XPSR)  returns 0x21000000 (0000ms, 0332ms total)
T1C48 020:109 JLINK_ReadReg(MSP)  returns 0x10000FE8 (0000ms, 0332ms total)
T1C48 020:109 JLINK_ReadReg(PSP)  returns 0xFFFFFFFC (0000ms, 0332ms total)
T1C48 020:109 JLINK_ReadReg(CFBP)  returns 0x00000000 (0000ms, 0332ms total)
T3AE0 020:109 JLINK_ReadMem (0x10000FF4, 0x0004 Bytes, ...) -- CPU_ReadMem(64 bytes @ 0x10000FC0) -- Updating DA cache (64 bytes @ 0x10000FC0) -- Read from DA cache (4 bytes @ 0x10000FF4) - Data: 1D 08 00 10  returns 0x00 (0003ms, 0335ms total)
T3AE0 020:112 JLINK_ReadMem (0x10000FE8, 0x0004 Bytes, ...) -- Read from DA cache (4 bytes @ 0x10000FE8) - Data: F0 0C 00 10  returns 0x00 (0000ms, 0335ms total)
T3AE0 020:112 JLINK_ReadMem (0x10000FEC, 0x0004 Bytes, ...) -- Read from DA cache (4 bytes @ 0x10000FEC) - Data: 01 00 00 00  returns 0x00 (0000ms, 0335ms total)
T3AE0 020:112 JLINK_ReadMem (0x10000FF0, 0x0004 Bytes, ...) -- Read from DA cache (4 bytes @ 0x10000FF0) - Data: F0 0C 00 10  returns 0x00 (0000ms, 0335ms total)
T3AE0 020:114 JLINK_ReadMem (0x00000000, 0x0004 Bytes, ...) -- CPU_ReadMem(4 bytes @ 0x00000000) - Data: F8 0F 00 10  returns 0x00 (0002ms, 0337ms total)
T3AE0 020:120 JLINK_ReadMem (0x10000400, 0x003C Bytes, ...) -- CPU_ReadMem(64 bytes @ 0x10000400) -- Updating DA cache (64 bytes @ 0x10000400) -- Read from DA cache (60 bytes @ 0x10000400) - Data: 20 1D FF F7 ED FE 20 49 20 46 FF F7 E9 FE 29 46 ...  returns 0x00 (0001ms, 0338ms total)
T1C48 020:670 JLINK_SetBPEx(Addr = 0x10000408, Type = 0xFFFFFFF2)  returns 0x00000007 (0001ms, 0339ms total)
T1C48 020:671 JLINK_Go() -- CPU_WriteMem(4 bytes @ 0xE0002000) -- CPU_WriteMem(4 bytes @ 0xE0002008) (0004ms, 0343ms total)
T1C48 020:776 JLINK_IsHalted()  returns TRUE (0004ms, 0347ms total)
T1C48 020:780 JLINK_Halt()  returns 0x00 (0000ms, 0343ms total)
T1C48 020:780 JLINK_IsHalted()  returns TRUE (0000ms, 0343ms total)
T1C48 020:780 JLINK_IsHalted()  returns TRUE (0000ms, 0343ms total)
T1C48 020:780 JLINK_IsHalted()  returns TRUE (0000ms, 0343ms total)
T1C48 020:780 JLINK_ReadReg(R15 (PC))  returns 0x10000408 (0000ms, 0343ms total)
T1C48 020:780 JLINK_ReadReg(XPSR)  returns 0x01000000 (0000ms, 0343ms total)
T1C48 020:780 JLINK_ClrBPEx(BPHandle = 0x00000007)  returns 0x00 (0000ms, 0343ms total)
T1C48 020:780 JLINK_ReadMemU32(0xE000ED30, 0x0001 Items, ...) -- CPU_ReadMem(4 bytes @ 0xE000ED30) - Data: 03 00 00 00  returns 0x01 (0001ms, 0344ms total)
T1C48 020:781 JLINK_ReadMemU32(0xE0001028, 0x0001 Items, ...) -- CPU_ReadMem(4 bytes @ 0xE0001028) - Data: 00 00 00 00  returns 0x01 (0001ms, 0345ms total)
T1C48 020:782 JLINK_ReadMemU32(0xE0001038, 0x0001 Items, ...) -- CPU_ReadMem(4 bytes @ 0xE0001038) - Data: 00 00 00 00  returns 0x01 (0001ms, 0346ms total)
T1C48 020:783 JLINK_ReadReg(R0)  returns 0x40000004 (0000ms, 0346ms total)
T1C48 020:783 JLINK_ReadReg(R1)  returns 0xFF7A0000 (0000ms, 0346ms total)
T1C48 020:783 JLINK_ReadReg(R2)  returns 0x00000000 (0000ms, 0346ms total)
T1C48 020:783 JLINK_ReadReg(R3)  returns 0x1A008818 (0000ms, 0346ms total)
T1C48 020:783 JLINK_ReadReg(R4)  returns 0x40000000 (0000ms, 0346ms total)
T1C48 020:783 JLINK_ReadReg(R5)  returns 0x00F42400 (0000ms, 0346ms total)
T1C48 020:783 JLINK_ReadReg(R6)  returns 0x10000CF0 (0000ms, 0346ms total)
T1C48 020:783 JLINK_ReadReg(R7)  returns 0x40000000 (0000ms, 0346ms total)
T1C48 020:783 JLINK_ReadReg(R8)  returns 0xFFFFFFFF (0000ms, 0346ms total)
T1C48 020:783 JLINK_ReadReg(R9)  returns 0xFFFFFFFF (0000ms, 0346ms total)
T1C48 020:783 JLINK_ReadReg(R10)  returns 0xFFFFFFFF (0000ms, 0346ms total)
T1C48 020:783 JLINK_ReadReg(R11)  returns 0xFFFFFFFF (0000ms, 0346ms total)
T1C48 020:783 JLINK_ReadReg(R12)  returns 0xFFFFFFFF (0000ms, 0346ms total)
T1C48 020:783 JLINK_ReadReg(R13 (SP))  returns 0x10000FE8 (0000ms, 0346ms total)
T1C48 020:783 JLINK_ReadReg(R14)  returns 0x10000407 (0000ms, 0346ms total)
T1C48 020:783 JLINK_ReadReg(R15 (PC))  returns 0x10000408 (0000ms, 0346ms total)
T1C48 020:783 JLINK_ReadReg(XPSR)  returns 0x01000000 (0000ms, 0346ms total)
T1C48 020:783 JLINK_ReadReg(MSP)  returns 0x10000FE8 (0000ms, 0346ms total)
T1C48 020:783 JLINK_ReadReg(PSP)  returns 0xFFFFFFFC (0000ms, 0346ms total)
T1C48 020:783 JLINK_ReadReg(CFBP)  returns 0x00000000 (0001ms, 0347ms total)
T3AE0 020:784 JLINK_ReadMem (0x10000FF4, 0x0004 Bytes, ...) -- CPU_ReadMem(64 bytes @ 0x10000FC0) -- Updating DA cache (64 bytes @ 0x10000FC0) -- Read from DA cache (4 bytes @ 0x10000FF4) - Data: 1D 08 00 10  returns 0x00 (0001ms, 0348ms total)
T3AE0 020:785 JLINK_ReadMem (0x10000FE8, 0x0004 Bytes, ...) -- Read from DA cache (4 bytes @ 0x10000FE8) - Data: F0 0C 00 10  returns 0x00 (0000ms, 0348ms total)
T3AE0 020:785 JLINK_ReadMem (0x10000FEC, 0x0004 Bytes, ...) -- Read from DA cache (4 bytes @ 0x10000FEC) - Data: 01 00 00 00  returns 0x00 (0000ms, 0348ms total)
T3AE0 020:785 JLINK_ReadMem (0x10000FF0, 0x0004 Bytes, ...) -- Read from DA cache (4 bytes @ 0x10000FF0) - Data: F0 0C 00 10  returns 0x00 (0000ms, 0348ms total)
T3AE0 020:789 JLINK_ReadMem (0x00000000, 0x0004 Bytes, ...) -- CPU_ReadMem(4 bytes @ 0x00000000) - Data: F8 0F 00 10  returns 0x00 (0001ms, 0349ms total)
T3AE0 020:794 JLINK_ReadMem (0x10000408, 0x003C Bytes, ...) -- CPU_ReadMem(128 bytes @ 0x10000400) -- Updating DA cache (128 bytes @ 0x10000400) -- Read from DA cache (60 bytes @ 0x10000408) - Data: 20 46 FF F7 E9 FE 29 46 00 20 00 F0 59 FB 6C 10 ...  returns 0x00 (0002ms, 0351ms total)
T3AE0 020:799 JLINK_ReadMem (0x100003F8, 0x0008 Bytes, ...) -- CPU_ReadMem(64 bytes @ 0x100003C0) -- Updating DA cache (64 bytes @ 0x100003C0) -- Read from DA cache (8 bytes @ 0x100003F8) - Data: 20 46 FF F7 F1 FE 08 21  returns 0x00 (0001ms, 0352ms total)
T3AE0 020:800 JLINK_ReadMem (0x10000400, 0x0034 Bytes, ...) -- Read from DA cache (52 bytes @ 0x10000400) - Data: 20 1D FF F7 ED FE 20 49 20 46 FF F7 E9 FE 29 46 ...  returns 0x00 (0000ms, 0352ms total)
T1C48 021:918 JLINK_SetBPEx(Addr = 0x1000081C, Type = 0xFFFFFFF2)  returns 0x00000008 (0001ms, 0353ms total)
T1C48 021:919 JLINK_Go() -- CPU_WriteMem(4 bytes @ 0xE0002000) -- CPU_WriteMem(4 bytes @ 0xE0002008) (0004ms, 0357ms total)
T1C48 022:023 JLINK_IsHalted()  returns TRUE (0003ms, 0360ms total)
T1C48 022:026 JLINK_Halt()  returns 0x00 (0000ms, 0357ms total)
T1C48 022:026 JLINK_IsHalted()  returns TRUE (0000ms, 0357ms total)
T1C48 022:026 JLINK_IsHalted()  returns TRUE (0000ms, 0357ms total)
T1C48 022:026 JLINK_IsHalted()  returns TRUE (0000ms, 0357ms total)
T1C48 022:026 JLINK_ReadReg(R15 (PC))  returns 0x1000081C (0000ms, 0357ms total)
T1C48 022:026 JLINK_ReadReg(XPSR)  returns 0x21000000 (0000ms, 0357ms total)
T1C48 022:026 JLINK_ClrBPEx(BPHandle = 0x00000008)  returns 0x00 (0000ms, 0357ms total)
T1C48 022:026 JLINK_ReadMemU32(0xE000ED30, 0x0001 Items, ...) -- CPU_ReadMem(4 bytes @ 0xE000ED30) - Data: 03 00 00 00  returns 0x01 (0001ms, 0358ms total)
T1C48 022:027 JLINK_ReadMemU32(0xE0001028, 0x0001 Items, ...) -- CPU_ReadMem(4 bytes @ 0xE0001028) - Data: 00 00 00 00  returns 0x01 (0001ms, 0359ms total)
T1C48 022:028 JLINK_ReadMemU32(0xE0001038, 0x0001 Items, ...) -- CPU_ReadMem(4 bytes @ 0xE0001038) - Data: 00 00 00 00  returns 0x01 (0001ms, 0360ms total)
T1C48 022:029 JLINK_ReadReg(R0)  returns 0x40000034 (0000ms, 0360ms total)
T1C48 022:029 JLINK_ReadReg(R1)  returns 0x2AAAAAAA (0000ms, 0360ms total)
T1C48 022:029 JLINK_ReadReg(R2)  returns 0x00008000 (0000ms, 0360ms total)
T1C48 022:029 JLINK_ReadReg(R3)  returns 0x08008858 (0000ms, 0360ms total)
T1C48 022:029 JLINK_ReadReg(R4)  returns 0x10000CF0 (0000ms, 0360ms total)
T1C48 022:029 JLINK_ReadReg(R5)  returns 0x00000001 (0000ms, 0360ms total)
T1C48 022:029 JLINK_ReadReg(R6)  returns 0x10000CF0 (0000ms, 0360ms total)
T1C48 022:029 JLINK_ReadReg(R7)  returns 0x40000000 (0000ms, 0360ms total)
T1C48 022:029 JLINK_ReadReg(R8)  returns 0xFFFFFFFF (0000ms, 0360ms total)
T1C48 022:029 JLINK_ReadReg(R9)  returns 0xFFFFFFFF (0000ms, 0360ms total)
T1C48 022:029 JLINK_ReadReg(R10)  returns 0xFFFFFFFF (0000ms, 0360ms total)
T1C48 022:029 JLINK_ReadReg(R11)  returns 0xFFFFFFFF (0000ms, 0360ms total)
T1C48 022:029 JLINK_ReadReg(R12)  returns 0xFFFFFFFF (0000ms, 0360ms total)
T1C48 022:029 JLINK_ReadReg(R13 (SP))  returns 0x10000FF8 (0000ms, 0360ms total)
T1C48 022:029 JLINK_ReadReg(R14)  returns 0x1000047D (0000ms, 0360ms total)
T1C48 022:029 JLINK_ReadReg(R15 (PC))  returns 0x1000081C (0000ms, 0360ms total)
T1C48 022:029 JLINK_ReadReg(XPSR)  returns 0x21000000 (0001ms, 0361ms total)
T1C48 022:030 JLINK_ReadReg(MSP)  returns 0x10000FF8 (0000ms, 0361ms total)
T1C48 022:030 JLINK_ReadReg(PSP)  returns 0xFFFFFFFC (0000ms, 0361ms total)
T1C48 022:030 JLINK_ReadReg(CFBP)  returns 0x00000000 (0000ms, 0361ms total)
T3AE0 022:036 JLINK_ReadMem (0x00000000, 0x0004 Bytes, ...) -- CPU_ReadMem(4 bytes @ 0x00000000) - Data: F8 0F 00 10  returns 0x00 (0001ms, 0362ms total)
T3AE0 022:038 JLINK_ReadMem (0x1000081C, 0x003C Bytes, ...) -- CPU_ReadMem(128 bytes @ 0x10000800) -- Updating DA cache (128 bytes @ 0x10000800) -- Read from DA cache (60 bytes @ 0x1000081C) - Data: 0E 48 FF F7 C5 FF 00 21 C9 43 4F 08 38 46 FF F7 ...  returns 0x00 (0001ms, 0363ms total)
T3AE0 022:049 JLINK_ReadMem (0x10000818, 0x003C Bytes, ...) -- Read from DA cache (60 bytes @ 0x10000818) - Data: FF F7 CE FD 0E 48 FF F7 C5 FF 00 21 C9 43 4F 08 ...  returns 0x00 (0000ms, 0363ms total)
T1C48 023:286 JLINK_Step() -- Read from DA cache (2 bytes @ 0x1000081C) -- CPU_ReadMem(4 bytes @ 0xE0001004) -- Not simulated -- CPU_WriteMem(4 bytes @ 0xE0002008)  returns 0x00 (0008ms, 0371ms total)
T1C48 023:294 JLINK_ReadReg(R15 (PC))  returns 0x1000081E (0000ms, 0371ms total)
T1C48 023:294 JLINK_ReadReg(XPSR)  returns 0x21000000 (0000ms, 0371ms total)
T1C48 023:294 JLINK_SetBPEx(Addr = 0x10000822, Type = 0xFFFFFFF2)  returns 0x00000009 (0000ms, 0371ms total)
T1C48 023:294 JLINK_Go() -- CPU_WriteMem(4 bytes @ 0xE0002000) -- CPU_WriteMem(4 bytes @ 0xE0002008) (0004ms, 0375ms total)
T1C48 023:398 JLINK_IsHalted()  returns TRUE (0003ms, 0378ms total)
T1C48 023:401 JLINK_Halt()  returns 0x00 (0000ms, 0375ms total)
T1C48 023:401 JLINK_IsHalted()  returns TRUE (0000ms, 0375ms total)
T1C48 023:401 JLINK_IsHalted()  returns TRUE (0000ms, 0375ms total)
T1C48 023:401 JLINK_IsHalted()  returns TRUE (0000ms, 0375ms total)
T1C48 023:401 JLINK_ReadReg(R15 (PC))  returns 0x10000822 (0000ms, 0375ms total)
T1C48 023:401 JLINK_ReadReg(XPSR)  returns 0x01000000 (0000ms, 0375ms total)
T1C48 023:401 JLINK_ClrBPEx(BPHandle = 0x00000009)  returns 0x00 (0000ms, 0375ms total)
T1C48 023:401 JLINK_ReadMemU32(0xE000ED30, 0x0001 Items, ...) -- CPU_ReadMem(4 bytes @ 0xE000ED30) - Data: 03 00 00 00  returns 0x01 (0001ms, 0376ms total)
T1C48 023:402 JLINK_ReadMemU32(0xE0001028, 0x0001 Items, ...) -- CPU_ReadMem(4 bytes @ 0xE0001028) - Data: 00 00 00 00  returns 0x01 (0001ms, 0377ms total)
T1C48 023:403 JLINK_ReadMemU32(0xE0001038, 0x0001 Items, ...) -- CPU_ReadMem(4 bytes @ 0xE0001038) - Data: 00 00 00 00  returns 0x01 (0001ms, 0378ms total)
T1C48 023:404 JLINK_ReadReg(R0)  returns 0x00000001 (0000ms, 0378ms total)
T1C48 023:404 JLINK_ReadReg(R1)  returns 0xE000E100 (0000ms, 0378ms total)
T1C48 023:404 JLINK_ReadReg(R2)  returns 0x00008000 (0000ms, 0378ms total)
T1C48 023:404 JLINK_ReadReg(R3)  returns 0x08008858 (0000ms, 0378ms total)
